File Format: MDS
Revision:  2.01
Title: temp.log
Date: Sat May  5 13:57:50 2018
Plotname: SP SP1[1] <temp.log>   freq=(1 GHz->10 GHz)
Flags: complex 
No. Sweep Variables: 0
Sweep Variables:	
No. Variables: 3
Variables:	0	freq	frequency type=real indep=yes mixop=neg
		1	S[1,1]	s-param type=complex indep=no
		2	PORTZ[1]	port-impedance type=complex indep=no
Values:
0	1.000000000000000e+09,0.000000000000000e+00
	-8.234260200062729e-01,3.821646272236732e-01
	3.770000000000000e+02,0.000000000000000e+00

1	1.100000000000000e+09,0.000000000000000e+00
	-7.554724575949331e-01,4.075163071471146e-01
	3.770000000000000e+02,0.000000000000000e+00

2	1.200000000000000e+09,0.000000000000000e+00
	-6.790093746577338e-01,4.135032553117273e-01
	3.770000000000000e+02,0.000000000000000e+00

3	1.300000000000000e+09,0.000000000000000e+00
	-6.029659247302050e-01,3.962980520736976e-01
	3.770000000000000e+02,0.000000000000000e+00

4	1.400000000000000e+09,0.000000000000000e+00
	-5.376701413910987e-01,3.578760012940720e-01
	3.770000000000000e+02,0.000000000000000e+00

5	1.500000000000000e+09,0.000000000000000e+00
	-4.904463444867845e-01,3.056521550860460e-01
	3.770000000000000e+02,0.000000000000000e+00

6	1.600000000000000e+09,0.000000000000000e+00
	-4.631047135116801e-01,2.489239048991403e-01
	3.770000000000000e+02,0.000000000000000e+00

7	1.700000000000000e+09,0.000000000000000e+00
	-4.528519607387361e-01,1.951627933467232e-01
	3.770000000000000e+02,0.000000000000000e+00

8	1.800000000000000e+09,0.000000000000000e+00
	-4.549057320527395e-01,1.485153743289116e-01
	3.770000000000000e+02,0.000000000000000e+00

9	1.900000000000000e+09,0.000000000000000e+00
	-4.646233828766133e-01,1.102837026115031e-01
	3.770000000000000e+02,0.000000000000000e+00

10	2.000000000000000e+09,0.000000000000000e+00
	-4.784404284108165e-01,8.007481053545211e-02
	3.770000000000000e+02,0.000000000000000e+00

11	2.100000000000000e+09,0.000000000000000e+00
	-4.939693214684588e-01,5.676513369254216e-02
	3.770000000000000e+02,0.000000000000000e+00

12	2.200000000000000e+09,0.000000000000000e+00
	-5.097562299111287e-01,3.907145446920005e-02
	3.770000000000000e+02,0.000000000000000e+00

13	2.300000000000000e+09,0.000000000000000e+00
	-5.249875604868735e-01,2.581536798664031e-02
	3.770000000000000e+02,0.000000000000000e+00

14	2.400000000000000e+09,0.000000000000000e+00
	-5.392534826173148e-01,1.601223148374510e-02
	3.770000000000000e+02,0.000000000000000e+00

15	2.500000000000000e+09,0.000000000000000e+00
	-5.523846741943459e-01,8.877354314073839e-03
	3.770000000000000e+02,0.000000000000000e+00

16	2.600000000000000e+09,0.000000000000000e+00
	-5.643482018259816e-01,3.800466385661636e-03
	3.770000000000000e+02,0.000000000000000e+00

17	2.700000000000000e+09,0.000000000000000e+00
	-5.751841660750023e-01,3.125365238057149e-04
	3.770000000000000e+02,0.000000000000000e+00

18	2.800000000000000e+09,0.000000000000000e+00
	-5.849683944950061e-01,-1.945273345112442e-03
	3.770000000000000e+02,0.000000000000000e+00

19	2.900000000000000e+09,0.000000000000000e+00
	-5.937910996016302e-01,-3.247433779520126e-03
	3.770000000000000e+02,0.000000000000000e+00

20	3.000000000000000e+09,0.000000000000000e+00
	-6.017450758250039e-01,-3.804380939685013e-03
	3.770000000000000e+02,0.000000000000000e+00

21	3.100000000000000e+09,0.000000000000000e+00
	-6.089194924301082e-01,-3.778084522814009e-03
	3.770000000000000e+02,0.000000000000000e+00

22	3.200000000000000e+09,0.000000000000000e+00
	-6.153969140070168e-01,-3.293801887922400e-03
	3.770000000000000e+02,0.000000000000000e+00

23	3.300000000000000e+09,0.000000000000000e+00
	-6.212521445107027e-01,-2.448898905420568e-03
	3.770000000000000e+02,0.000000000000000e+00

24	3.400000000000000e+09,0.000000000000000e+00
	-6.265520705975380e-01,-1.319460534442917e-03
	3.770000000000000e+02,0.000000000000000e+00

25	3.500000000000000e+09,0.000000000000000e+00
	-6.313560250336181e-01,3.474740604037700e-05
	3.770000000000000e+02,0.000000000000000e+00

26	3.600000000000000e+09,0.000000000000000e+00
	-6.357163950552126e-01,1.566541566848402e-03
	3.770000000000000e+02,0.000000000000000e+00

27	3.700000000000000e+09,0.000000000000000e+00
	-6.396793207565533e-01,3.238494462636572e-03
	3.770000000000000e+02,0.000000000000000e+00

28	3.800000000000000e+09,0.000000000000000e+00
	-6.432853990010704e-01,5.020785331234108e-03
	3.770000000000000e+02,0.000000000000000e+00

29	3.900000000000000e+09,0.000000000000000e+00
	-6.465703492991061e-01,6.889557120153202e-03
	3.770000000000000e+02,0.000000000000000e+00

30	4.000000000000000e+09,0.000000000000000e+00
	-6.495656216113721e-01,8.825653306689904e-03
	3.770000000000000e+02,0.000000000000000e+00

31	4.100000000000000e+09,0.000000000000000e+00
	-6.522989392671502e-01,1.081364122374502e-02
	3.770000000000000e+02,0.000000000000000e+00

32	4.200000000000000e+09,0.000000000000000e+00
	-6.547947773712921e-01,1.284105266483973e-02
	3.770000000000000e+02,0.000000000000000e+00

33	4.300000000000000e+09,0.000000000000000e+00
	-6.570747807348106e-01,1.489779018583673e-02
	3.770000000000000e+02,0.000000000000000e+00

34	4.400000000000000e+09,0.000000000000000e+00
	-6.591581269977049e-01,1.697566047477475e-02
	3.770000000000000e+02,0.000000000000000e+00

35	4.500000000000000e+09,0.000000000000000e+00
	-6.610618411074052e-01,1.906800570860562e-02
	3.770000000000000e+02,0.000000000000000e+00

36	4.600000000000000e+09,0.000000000000000e+00
	-6.628010671958297e-01,2.116941088414971e-02
	3.770000000000000e+02,0.000000000000000e+00

37	4.700000000000000e+09,0.000000000000000e+00
	-6.643893034688306e-01,2.327547036972312e-02
	3.770000000000000e+02,0.000000000000000e+00

38	4.800000000000000e+09,0.000000000000000e+00
	-6.658386051601820e-01,2.538260085703807e-02
	3.770000000000000e+02,0.000000000000000e+00

39	4.900000000000000e+09,0.000000000000000e+00
	-6.671597600071117e-01,2.748789085007555e-02
	3.770000000000000e+02,0.000000000000000e+00

40	5.000000000000000e+09,0.000000000000000e+00
	-6.683624401287076e-01,2.958897906270942e-02
	3.770000000000000e+02,0.000000000000000e+00

41	5.100000000000000e+09,0.000000000000000e+00
	-6.694553336584625e-01,3.168395579523134e-02
	3.770000000000000e+02,0.000000000000000e+00

42	5.200000000000000e+09,0.000000000000000e+00
	-6.704462590083562e-01,3.377128265720582e-02
	3.770000000000000e+02,0.000000000000000e+00

43	5.300000000000000e+09,0.000000000000000e+00
	-6.713422642261979e-01,3.584972700010632e-02
	3.770000000000000e+02,0.000000000000000e+00

44	5.400000000000000e+09,0.000000000000000e+00
	-6.721497135478163e-01,3.791830819177435e-02
	3.770000000000000e+02,0.000000000000000e+00

45	5.500000000000000e+09,0.000000000000000e+00
	-6.728743629363045e-01,3.997625346069522e-02
	3.770000000000000e+02,0.000000000000000e+00

46	5.600000000000000e+09,0.000000000000000e+00
	-6.735214261361515e-01,4.202296150245417e-02
	3.770000000000000e+02,0.000000000000000e+00

47	5.700000000000000e+09,0.000000000000000e+00
	-6.740956325450922e-01,4.405797240414622e-02
	3.770000000000000e+02,0.000000000000000e+00

48	5.800000000000000e+09,0.000000000000000e+00
	-6.746012780153541e-01,4.608094272828649e-02
	3.770000000000000e+02,0.000000000000000e+00

49	5.900000000000000e+09,0.000000000000000e+00
	-6.750422695338458e-01,4.809162482338467e-02
	3.770000000000000e+02,0.000000000000000e+00

50	6.000000000000000e+09,0.000000000000000e+00
	-6.754221645933414e-01,5.008984960725344e-02
	3.770000000000000e+02,0.000000000000000e+00

51	6.100000000000000e+09,0.000000000000000e+00
	-6.757442059501271e-01,5.207551221154835e-02
	3.770000000000000e+02,0.000000000000000e+00

52	6.200000000000000e+09,0.000000000000000e+00
	-6.760113523646529e-01,5.404855998986110e-02
	3.770000000000000e+02,0.000000000000000e+00

53	6.300000000000000e+09,0.000000000000000e+00
	-6.762263058377274e-01,5.600898248299885e-02
	3.770000000000000e+02,0.000000000000000e+00

54	6.400000000000000e+09,0.000000000000000e+00
	-6.763915357833805e-01,5.795680300858497e-02
	3.770000000000000e+02,0.000000000000000e+00

55	6.500000000000000e+09,0.000000000000000e+00
	-6.765093005187109e-01,5.989207160151303e-02
	3.770000000000000e+02,0.000000000000000e+00

56	6.600000000000000e+09,0.000000000000000e+00
	-6.765816663992326e-01,6.181485907990390e-02
	3.770000000000000e+02,0.000000000000000e+00

57	6.700000000000000e+09,0.000000000000000e+00
	-6.766105248839456e-01,6.372525205037154e-02
	3.770000000000000e+02,0.000000000000000e+00

58	6.800000000000000e+09,0.000000000000000e+00
	-6.765976077765492e-01,6.562334869830948e-02
	3.770000000000000e+02,0.000000000000000e+00

59	6.900000000000000e+09,0.000000000000000e+00
	-6.765445008567492e-01,6.750925523503173e-02
	3.770000000000000e+02,0.000000000000000e+00

60	7.000000000000000e+09,0.000000000000000e+00
	-6.764526560878050e-01,6.938308289502147e-02
	3.770000000000000e+02,0.000000000000000e+00

61	7.100000000000000e+09,0.000000000000000e+00
	-6.763234025625400e-01,7.124494539414601e-02
	3.770000000000000e+02,0.000000000000000e+00

62	7.200000000000000e+09,0.000000000000000e+00
	-6.761579563293914e-01,7.309495677424288e-02
	3.770000000000000e+02,0.000000000000000e+00

63	7.300000000000000e+09,0.000000000000000e+00
	-6.759574292223358e-01,7.493322957146195e-02
	3.770000000000000e+02,0.000000000000000e+00

64	7.400000000000000e+09,0.000000000000000e+00
	-6.757228368031103e-01,7.675987325572142e-02
	3.770000000000000e+02,0.000000000000000e+00

65	7.500000000000000e+09,0.000000000000000e+00
	-6.754551055108529e-01,7.857499289686165e-02
	3.770000000000000e+02,0.000000000000000e+00

66	7.600000000000000e+09,0.000000000000000e+00
	-6.751550791027174e-01,8.037868801996940e-02
	3.770000000000000e+02,0.000000000000000e+00

67	7.700000000000000e+09,0.000000000000000e+00
	-6.748235244589712e-01,8.217105161804340e-02
	3.770000000000000e+02,0.000000000000000e+00

68	7.800000000000000e+09,0.000000000000000e+00
	-6.744611368173328e-01,8.395216929496124e-02
	3.770000000000000e+02,0.000000000000000e+00

69	7.900000000000000e+09,0.000000000000000e+00
	-6.740685444936696e-01,8.572211851567092e-02
	3.770000000000000e+02,0.000000000000000e+00

70	8.000000000000000e+09,0.000000000000000e+00
	-6.736463131394897e-01,8.748096794387780e-02
	3.770000000000000e+02,0.000000000000000e+00

71	8.100000000000000e+09,0.000000000000000e+00
	-6.731949495808258e-01,8.922877685026874e-02
	3.770000000000000e+02,0.000000000000000e+00

72	8.200000000000000e+09,0.000000000000000e+00
	-6.727149052779622e-01,9.096559457665043e-02
	3.770000000000000e+02,0.000000000000000e+00

73	8.300000000000000e+09,0.000000000000000e+00
	-6.722065794409486e-01,9.269146004332204e-02
	3.770000000000000e+02,0.000000000000000e+00

74	8.400000000000000e+09,0.000000000000000e+00
	-6.716703218318679e-01,9.440640128862263e-02
	3.770000000000000e+02,0.000000000000000e+00

75	8.500000000000000e+09,0.000000000000000e+00
	-6.711064352812915e-01,9.611043503094885e-02
	3.770000000000000e+02,0.000000000000000e+00

76	8.600000000000000e+09,0.000000000000000e+00
	-6.705151779432927e-01,9.780356624464946e-02
	3.770000000000000e+02,0.000000000000000e+00

77	8.700000000000000e+09,0.000000000000000e+00
	-6.698967653105761e-01,9.948578774213365e-02
	3.770000000000000e+02,0.000000000000000e+00

78	8.800000000000000e+09,0.000000000000000e+00
	-6.692513720088726e-01,1.011570797552778e-01
	3.770000000000000e+02,0.000000000000000e+00

79	8.900000000000000e+09,0.000000000000000e+00
	-6.685791333875533e-01,1.028174095098236e-01
	3.770000000000000e+02,0.000000000000000e+00

80	9.000000000000000e+09,0.000000000000000e+00
	-6.678801469214490e-01,1.044667307869403e-01
	3.770000000000000e+02,0.000000000000000e+00

81	9.100000000000000e+09,0.000000000000000e+00
	-6.671544734371528e-01,1.061049834664961e-01
	3.770000000000000e+02,0.000000000000000e+00

82	9.200000000000000e+09,0.000000000000000e+00
	-6.664021381754619e-01,1.077320930468519e-01
	3.770000000000000e+02,0.000000000000000e+00

83	9.300000000000000e+09,0.000000000000000e+00
	-6.656231317002528e-01,1.093479701361764e-01
	3.770000000000000e+02,0.000000000000000e+00

84	9.400000000000000e+09,0.000000000000000e+00
	-6.648174106627559e-01,1.109525099103853e-01
	3.770000000000000e+02,0.000000000000000e+00

85	9.500000000000000e+09,0.000000000000000e+00
	-6.639848984290710e-01,1.125455915328371e-01
	3.770000000000000e+02,0.000000000000000e+00

86	9.600000000000000e+09,0.000000000000000e+00
	-6.631254855776796e-01,1.141270775308821e-01
	3.770000000000000e+02,0.000000000000000e+00

87	9.700000000000000e+09,0.000000000000000e+00
	-6.622390302727508e-01,1.156968131242535e-01
	3.770000000000000e+02,0.000000000000000e+00

88	9.800000000000000e+09,0.000000000000000e+00
	-6.613253585181476e-01,1.172546255001324e-01
	3.770000000000000e+02,0.000000000000000e+00

89	9.900000000000000e+09,0.000000000000000e+00
	-6.603842642962023e-01,1.188003230294747e-01
	3.770000000000000e+02,0.000000000000000e+00

90	1.000000000000000e+10,0.000000000000000e+00
	-6.594155095945773e-01,1.203336944189151e-01
	3.770000000000000e+02,0.000000000000000e+00

#

